
**** 05/02/26 17:51:03 ******* PSpice Lite (April 2011) ******* ID# 10813 ****

 ** Profile: "SCHEMATIC1-a"  [ C:\OrCAD\OrCAD_16.5_Lite\tools\capture\208 project-pspicefiles\schematic1\a.sim ] 


 ****     CIRCUIT DESCRIPTION


******************************************************************************




** Creating circuit file "a.cir" 
** WARNING: THIS AUTOMATICALLY GENERATED FILE MAY BE OVERWRITTEN BY SUBSEQUENT SIMULATIONS

*Libraries: 
* Profile Libraries :
* Local Libraries :
* From [PSPICE NETLIST] section of C:\OrCAD\OrCAD_16.5_Lite\tools\pspice\PSpice.ini file:
.lib "nomd.lib" 

*Analysis directives: 
.TRAN  0 10s 0 1ms 
.PROBE V(alias(*)) I(alias(*)) W(alias(*)) D(alias(*)) NOISE(alias(*)) 
.INC "..\SCHEMATIC1.net" 



**** INCLUDING SCHEMATIC1.net ****
* source 208 PROJECT
V_V1         N00314 0 11.96V
Q_Q1         N00390 N00385 0 Q2N2222
Q_Q2         N00473 N00390 0 Q2N3904
R_R1         N00309 N00314  1k TC=0,0 
R_R2         N00390 N00314  2.2k TC=0,0 
R_R3         N02870 N00314  330 TC=0,0 
R_Buzzer         N00473 N00314  100 TC=0,0 
D_D1         N00473 N00314 D1N4002 
D_D2         N02870 N00473 D1N4148 
X_U1         N00385 N00309 Sw_tClose PARAMS: tClose=5s ttran=1u Rclosed=0.01
+  Ropen=1Meg

**** RESUMING a.cir ****
.END

**** 05/02/26 17:51:03 ******* PSpice Lite (April 2011) ******* ID# 10813 ****

 ** Profile: "SCHEMATIC1-a"  [ C:\OrCAD\OrCAD_16.5_Lite\tools\capture\208 project-pspicefiles\schematic1\a.sim ] 


 ****     Diode MODEL PARAMETERS


******************************************************************************




               D1N4002         D1N4148         
          IS   14.110000E-09    2.682000E-09 
           N    1.984           1.836        
         ISR  100.000000E-12    1.565000E-09 
         IKF   94.81             .04417      
          BV  100.1           100            
         IBV   10             100.000000E-06 
          RS     .03389          .5664       
          TT    4.761000E-06   11.540000E-09 
         CJO   51.170000E-12    4.000000E-12 
          VJ     .3905           .5          
           M     .2762           .3333       


**** 05/02/26 17:51:03 ******* PSpice Lite (April 2011) ******* ID# 10813 ****

 ** Profile: "SCHEMATIC1-a"  [ C:\OrCAD\OrCAD_16.5_Lite\tools\capture\208 project-pspicefiles\schematic1\a.sim ] 


 ****     BJT MODEL PARAMETERS


******************************************************************************




               Q2N2222         Q2N3904         
               NPN             NPN             
       LEVEL    1               1            
          IS   14.340000E-15    6.734000E-15 
          BF  255.9           416.4          
          NF    1               1            
         VAF   74.03           74.03         
         IKF     .2847           .06678      
         ISE   14.340000E-15    6.734000E-15 
          NE    1.307           1.259        
          BR    6.092            .7371       
          NR    1               1            
         ISS    0               0            
          RB   10              10            
          RE    0               0            
          RC    1               1            
         CJE   22.010000E-12    4.493000E-12 
         VJE     .75             .75         
         MJE     .377            .2593       
         CJC    7.306000E-12    3.638000E-12 
         VJC     .75             .75         
         MJC     .3416           .3085       
        XCJC    1               1            
         CJS    0               0            
         VJS     .75             .75         
          TF  411.100000E-12  301.200000E-12 
         XTF    3               2            
         VTF    1.7             4            
         ITF     .6              .4          
          TR   46.910000E-09  239.500000E-09 
         XTB    1.5             1.5          
          KF    0               0            
          AF    1               1            
          CN    2.42            2.42         
           D     .87             .87         


**** 05/02/26 17:51:03 ******* PSpice Lite (April 2011) ******* ID# 10813 ****

 ** Profile: "SCHEMATIC1-a"  [ C:\OrCAD\OrCAD_16.5_Lite\tools\capture\208 project-pspicefiles\schematic1\a.sim ] 


 ****     Voltage Controlled Switch MODEL PARAMETERS


******************************************************************************




               X_U1.Smod       
         RON     .01         
        ROFF    1.000000E+06 
         VON    1            
        VOFF    0            


**** 05/02/26 17:51:03 ******* PSpice Lite (April 2011) ******* ID# 10813 ****

 ** Profile: "SCHEMATIC1-a"  [ C:\OrCAD\OrCAD_16.5_Lite\tools\capture\208 project-pspicefiles\schematic1\a.sim ] 


 ****     INITIAL TRANSIENT SOLUTION       TEMPERATURE =   27.000 DEG C


******************************************************************************



 NODE   VOLTAGE     NODE   VOLTAGE     NODE   VOLTAGE     NODE   VOLTAGE


(N00309)   11.9490 (N00314)   11.9600 (N00385)     .6606 (N00390)     .8589     

(N00473)     .3096 (N02870)    1.1107 (X_U1.3)    0.0000 




    VOLTAGE SOURCE CURRENTS
    NAME         CURRENT

    V_V1        -1.544E-01
    X_U1.V1      0.000E+00

    TOTAL POWER DISSIPATION   1.85E+00  WATTS



          JOB CONCLUDED

**** 05/02/26 17:51:03 ******* PSpice Lite (April 2011) ******* ID# 10813 ****

 ** Profile: "SCHEMATIC1-a"  [ C:\OrCAD\OrCAD_16.5_Lite\tools\capture\208 project-pspicefiles\schematic1\a.sim ] 


 ****     JOB STATISTICS SUMMARY


******************************************************************************



  Total job time (using Solver 1)   =         .16
